 time                   v(REF)                 v(VOCM)                v(OUTP)                v(OUTN)                cm_voutcm              cm_voutdiff            cm_idd                
 0.000000000000000e+00  8.500000000000000e-01  8.681938947895703e-01  8.681939384446722e-01  8.681939379538579e-01  8.681939381992650e-01  4.908142781090419e-10  1.555369203196318e-03 
 5.000000000000000e-11  8.500000000000000e-01  8.681938947896732e-01  8.681939384446915e-01  8.681939379538821e-01  8.681939381992868e-01  4.908093931277335e-10  1.555369202732836e-03 
 1.000000000000000e-10  8.500000000000000e-01  8.681938947897779e-01  8.681939384447147e-01  8.681939379538717e-01  8.681939381992931e-01  4.908430328853797e-10  1.555369202363096e-03 
 2.000000000000000e-10  8.500000000000000e-01  8.681938947899474e-01  8.681939384446887e-01  8.681939379537534e-01  8.681939381992211e-01  4.909352924187260e-10  1.555369202222657e-03 
 4.000000000000000e-10  8.500000000000000e-01  8.681938947901423e-01  8.681939384446599e-01  8.681939379536133e-01  8.681939381991366e-01  4.910465367657935e-10  1.555369203116618e-03 
 8.000000000000000e-10  8.500000000000000e-01  8.681938947903963e-01  8.681939384450322e-01  8.681939379540796e-01  8.681939381995559e-01  4.909526118979102e-10  1.555369202700788e-03 
 1.600000000000000e-09  8.500000000000000e-01  8.681938947928926e-01  8.681939384487619e-01  8.681939379581093e-01  8.681939382034356e-01  4.906526296366565e-10  1.555369202887671e-03 
 3.200000000000000e-09  8.500000000000000e-01  8.681938948018881e-01  8.681939384579714e-01  8.681939379735016e-01  8.681939382157365e-01  4.844697976125190e-10  1.555369203207949e-03 
 6.400000000000000e-09  8.500000000000000e-01  8.681938948312862e-01  8.681939384829130e-01  8.681939380226545e-01  8.681939382527838e-01  4.602584979807034e-10  1.555369203827436e-03 
 1.140000000000000e-08  8.500000000000000e-01  8.681938948945501e-01  8.681939385037835e-01  8.681939381512701e-01  8.681939383275268e-01  3.525133518422763e-10  1.555369203290740e-03 
 1.640000000000000e-08  8.500000000000000e-01  8.681938949655931e-01  8.681939385205920e-01  8.681939382893012e-01  8.681939384049466e-01  2.312907643187145e-10  1.555369204080812e-03 
 2.140000000000000e-08  8.500000000000000e-01  8.681938950322002e-01  8.681939385469535e-01  8.681939384002355e-01  8.681939384735945e-01  1.467179711056588e-10  1.555369204002976e-03 
 2.640000000000000e-08  8.500000000000000e-01  8.681938950936771e-01  8.681939385832700e-01  8.681939384847082e-01  8.681939385339891e-01  9.856182536793767e-11  1.555369203426697e-03 
 3.140000000000000e-08  8.500000000000000e-01  8.681938951490835e-01  8.681939386252093e-01  8.681939385481542e-01  8.681939385866817e-01  7.705514004641145e-11  1.555369203944730e-03 
 3.640000000000000e-08  8.500000000000000e-01  8.681938951952495e-01  8.681939386644429e-01  8.681939385958142e-01  8.681939386301285e-01  6.862876933411144e-11  1.555369203973486e-03 
 4.139999999999999e-08  8.500000000000000e-01  8.681938952358069e-01  8.681939386977928e-01  8.681939386327300e-01  8.681939386652614e-01  6.506284400131790e-11  1.555369203170752e-03 
 4.639999999999999e-08  8.500000000000000e-01  8.681938952689332e-01  8.681939387268128e-01  8.681939386643577e-01  8.681939386955853e-01  6.245515216107833e-11  1.555369203360176e-03 
 5.139999999999999e-08  8.500000000000000e-01  8.681938952959298e-01  8.681939387510583e-01  8.681939386884366e-01  8.681939387197475e-01  6.262168561477210e-11  1.555369203169644e-03 
 5.639999999999999e-08  8.500000000000000e-01  8.681938953195417e-01  8.681939387719335e-01  8.681939387120100e-01  8.681939387419717e-01  5.992351059802559e-11  1.555369203775484e-03 
 6.139999999999999e-08  8.500000000000000e-01  8.681938953386438e-01  8.681939387894317e-01  8.681939387297410e-01  8.681939387595864e-01  5.969069682976169e-11  1.555369203252137e-03 
 6.640000000000000e-08  8.500000000000000e-01  8.681938953512740e-01  8.681939388018483e-01  8.681939387365034e-01  8.681939387691758e-01  6.534484064957269e-11  1.555369203080190e-03 
 7.140000000000000e-08  8.500000000000000e-01  8.681938953553678e-01  8.681939388081800e-01  8.681939387310468e-01  8.681939387696134e-01  7.713318872504260e-11  1.555369203013986e-03 
 7.640000000000001e-08  8.500000000000000e-01  8.681938953512411e-01  8.681939388055665e-01  8.681939387183492e-01  8.681939387619578e-01  8.721734445771290e-11  1.555369202789557e-03 
 8.140000000000001e-08  8.500000000000000e-01  8.681938953400490e-01  8.681939387928173e-01  8.681939387019214e-01  8.681939387473694e-01  9.089584640520343e-11  1.555369202668203e-03 
 8.640000000000002e-08  8.500000000000000e-01  8.681938953234163e-01  8.681939387735846e-01  8.681939386831777e-01  8.681939387283812e-01  9.040690418515851e-11  1.555369202629417e-03 
 9.140000000000002e-08  8.500000000000000e-01  8.681938953042809e-01  8.681939387520904e-01  8.681939386598559e-01  8.681939387059732e-01  9.223444230599398e-11  1.555369202172870e-03 
 9.640000000000003e-08  8.500000000000000e-01  8.681938952850110e-01  8.681939387321284e-01  8.681939386360503e-01  8.681939386840893e-01  9.607803441724627e-11  1.555369202637121e-03 
 1.014000000000000e-07  8.500000000000000e-01  8.681938952620253e-01  8.681939387137984e-01  8.681939386105185e-01  8.681939386621584e-01  1.032798291333847e-10  1.555369202381391e-03 
 1.064000000000000e-07  8.500000000000000e-01  8.681938952400651e-01  8.681939386952270e-01  8.681939385846656e-01  8.681939386399463e-01  1.105613378626913e-10  1.555369202423603e-03 
 1.114000000000000e-07  8.500000000000000e-01  8.681938952155263e-01  8.681939386749052e-01  8.681939385563455e-01  8.681939386156254e-01  1.185597175989983e-10  1.555369202426768e-03 
 1.164000000000000e-07  8.500000000000000e-01  8.681938951924107e-01  8.681939386540634e-01  8.681939385287519e-01  8.681939385914077e-01  1.253114279009537e-10  1.555369202581284e-03 
 1.214000000000000e-07  8.500000000000000e-01  8.681938951664234e-01  8.681939386301948e-01  8.681939384993872e-01  8.681939385647910e-01  1.308075869843606e-10  1.555369202152637e-03 
 1.264000000000000e-07  8.500000000000000e-01  8.681938951374017e-01  8.681939386056220e-01  8.681939384616586e-01  8.681939385336404e-01  1.439633967592613e-10  1.555369202407033e-03 
 1.314000000000001e-07  8.500000000000000e-01  8.681938951069684e-01  8.681939385815208e-01  8.681939384242769e-01  8.681939385028989e-01  1.572438845798274e-10  1.555369202303708e-03 
 1.364000000000001e-07  8.500000000000000e-01  8.681938950790987e-01  8.681939385604310e-01  8.681939383933753e-01  8.681939384769032e-01  1.670557026045572e-10  1.555369202795735e-03 
 1.414000000000001e-07  8.500000000000000e-01  8.681938950562740e-01  8.681939385411658e-01  8.681939383702033e-01  8.681939384556845e-01  1.709624664059106e-10  1.555369203077493e-03 
 1.464000000000001e-07  8.500000000000000e-01  8.681938950324007e-01  8.681939385193654e-01  8.681939383440275e-01  8.681939384316965e-01  1.753379663682608e-10  1.555369202729421e-03 
 1.514000000000001e-07  8.500000000000000e-01  8.681938950043249e-01  8.681939384922354e-01  8.681939383151029e-01  8.681939384036692e-01  1.771324198429625e-10  1.555369202657782e-03 
 1.564000000000001e-07  8.500000000000000e-01  8.681938949751100e-01  8.681939384595656e-01  8.681939382846383e-01  8.681939383721020e-01  1.749272948714520e-10  1.555369202029278e-03 
 1.614000000000001e-07  8.500000000000000e-01  8.681938949432992e-01  8.681939384243724e-01  8.681939382531518e-01  8.681939383387621e-01  1.712205932591360e-10  1.555369202209813e-03 
 1.664000000000001e-07  8.500000000000000e-01  8.681938949049666e-01  8.681939383854734e-01  8.681939382138822e-01  8.681939382996778e-01  1.715911857047558e-10  1.555369201771390e-03 
 1.714000000000001e-07  8.500000000000000e-01  8.681938948650074e-01  8.681939383416336e-01  8.681939381734533e-01  8.681939382575434e-01  1.681803585285024e-10  1.555369201998266e-03 
 1.764000000000001e-07  8.500000000000000e-01  8.681938948232718e-01  8.681939382937580e-01  8.681939381341930e-01  8.681939382139755e-01  1.595650278574112e-10  1.555369202478381e-03 
 1.814000000000001e-07  8.500000000000000e-01  8.681938947803184e-01  8.681939382444828e-01  8.681939380948427e-01  8.681939381696627e-01  1.496400781064722e-10  1.555369202273273e-03 
 1.864000000000001e-07  8.500000000000000e-01  8.681938947325187e-01  8.681939381946092e-01  8.681939380492847e-01  8.681939381219470e-01  1.453245301874517e-10  1.555369201999899e-03 
 1.914000000000001e-07  8.500000000000000e-01  8.681938946854302e-01  8.681939381441949e-01  8.681939380019194e-01  8.681939380730571e-01  1.422755246949237e-10  1.555369201773403e-03 
 1.964000000000001e-07  8.500000000000000e-01  8.681938946394424e-01  8.681939380934656e-01  8.681939379601904e-01  8.681939380268280e-01  1.332751686788924e-10  1.555369202725684e-03 
 2.014000000000001e-07  8.500000000000000e-01  8.681938945953318e-01  8.681939380471173e-01  8.681939379227414e-01  8.681939379849293e-01  1.243759539804046e-10  1.555369202456525e-03 
 2.064000000000001e-07  8.500000000000000e-01  8.681938945587006e-01  8.681939380077911e-01  8.681939378908909e-01  8.681939379493411e-01  1.169001562217886e-10  1.555369202624940e-03 
 2.114000000000001e-07  8.500000000000000e-01  8.681938945275350e-01  8.681939379774237e-01  8.681939378637131e-01  8.681939379205684e-01  1.137105964943430e-10  1.555369202634933e-03 
 2.164000000000001e-07  8.500000000000000e-01  8.681938945038842e-01  8.681939379565630e-01  8.681939378442087e-01  8.681939379003858e-01  1.123542370251585e-10  1.555369203015313e-03 
 2.214000000000001e-07  8.500000000000000e-01  8.681938944860603e-01  8.681939379434894e-01  8.681939378294262e-01  8.681939378864578e-01  1.140632033269640e-10  1.555369202597043e-03 
 2.264000000000001e-07  8.500000000000000e-01  8.681938944696859e-01  8.681939379308058e-01  8.681939378143397e-01  8.681939378725727e-01  1.164660590191602e-10  1.555369202846033e-03 
 2.314000000000002e-07  8.500000000000000e-01  8.681938944536507e-01  8.681939379183209e-01  8.681939377927685e-01  8.681939378555448e-01  1.255523462972974e-10  1.555369202809287e-03 
 2.364000000000002e-07  8.500000000000000e-01  8.681938944391087e-01  8.681939379077284e-01  8.681939377727901e-01  8.681939378402592e-01  1.349382827697809e-10  1.555369202797082e-03 
 2.414000000000001e-07  8.500000000000000e-01  8.681938944299870e-01  8.681939379027036e-01  8.681939377659009e-01  8.681939378343022e-01  1.368026802950340e-10  1.555369202915922e-03 
 2.464000000000001e-07  8.500000000000000e-01  8.681938944247493e-01  8.681939379002916e-01  8.681939377614851e-01  8.681939378308884e-01  1.388065218321799e-10  1.555369202559143e-03 
 2.514000000000001e-07  8.500000000000000e-01  8.681938944228915e-01  8.681939378984734e-01  8.681939377601984e-01  8.681939378293360e-01  1.382750580702918e-10  1.555369202774319e-03 
 2.564000000000002e-07  8.500000000000000e-01  8.681938944222019e-01  8.681939378999401e-01  8.681939377643989e-01  8.681939378321695e-01  1.355412448944548e-10  1.555369202966197e-03 
 2.614000000000002e-07  8.500000000000000e-01  8.681938944253581e-01  8.681939379038689e-01  8.681939377682641e-01  8.681939378360666e-01  1.356047496514634e-10  1.555369202485337e-03 
 2.664000000000002e-07  8.500000000000000e-01  8.681938944325207e-01  8.681939379109395e-01  8.681939377775859e-01  8.681939378442627e-01  1.333535504244310e-10  1.555369202742860e-03 
 2.714000000000002e-07  8.500000000000000e-01  8.681938944425840e-01  8.681939379208353e-01  8.681939377911195e-01  8.681939378559774e-01  1.297157936619442e-10  1.555369203133463e-03 
 2.764000000000002e-07  8.500000000000000e-01  8.681938944577360e-01  8.681939379358987e-01  8.681939378087465e-01  8.681939378723227e-01  1.271521776757822e-10  1.555369203116899e-03 
 2.814000000000002e-07  8.500000000000000e-01  8.681938944743034e-01  8.681939379560099e-01  8.681939378237024e-01  8.681939378898561e-01  1.323074982906292e-10  1.555369203161404e-03 
 2.864000000000002e-07  8.500000000000000e-01  8.681938944899725e-01  8.681939379769031e-01  8.681939378350612e-01  8.681939379059822e-01  1.418419826038075e-10  1.555369202727515e-03 
 2.914000000000002e-07  8.500000000000000e-01  8.681938945010457e-01  8.681939379969539e-01  8.681939378385014e-01  8.681939379177277e-01  1.584524733644344e-10  1.555369203088830e-03 
 2.964000000000002e-07  8.500000000000000e-01  8.681938945132449e-01  8.681939380150069e-01  8.681939378427738e-01  8.681939379288903e-01  1.722331166575941e-10  1.555369202929813e-03 
 3.014000000000002e-07  8.500000000000000e-01  8.681938945278560e-01  8.681939380320610e-01  8.681939378549861e-01  8.681939379435235e-01  1.770749102902869e-10  1.555369202953222e-03 
 3.064000000000002e-07  8.500000000000000e-01  8.681938945444918e-01  8.681939380507715e-01  8.681939378730027e-01  8.681939379618870e-01  1.777687996806776e-10  1.555369203138037e-03 
 3.114000000000002e-07  8.500000000000000e-01  8.681938945619839e-01  8.681939380694724e-01  8.681939378883142e-01  8.681939379788933e-01  1.811581995525557e-10  1.555369202743101e-03 
 3.164000000000002e-07  8.500000000000000e-01  8.681938945762017e-01  8.681939380853085e-01  8.681939379030412e-01  8.681939379941749e-01  1.822673123541563e-10  1.555369203175744e-03 
 3.214000000000002e-07  8.500000000000000e-01  8.681938945907635e-01  8.681939380993505e-01  8.681939379155947e-01  8.681939380074726e-01  1.837557883632712e-10  1.555369202966282e-03 
 3.264000000000002e-07  8.500000000000000e-01  8.681938946028338e-01  8.681939381102903e-01  8.681939379278431e-01  8.681939380190666e-01  1.824472795064480e-10  1.555369202962386e-03 
 3.314000000000002e-07  8.500000000000000e-01  8.681938946123693e-01  8.681939381184389e-01  8.681939379374436e-01  8.681939380279413e-01  1.809953298348432e-10  1.555369203252669e-03 
 3.364000000000002e-07  8.500000000000000e-01  8.681938946216018e-01  8.681939381243503e-01  8.681939379447808e-01  8.681939380345656e-01  1.795694704043171e-10  1.555369202947919e-03 
 3.414000000000002e-07  8.500000000000000e-01  8.681938946306643e-01  8.681939381300442e-01  8.681939379549717e-01  8.681939380425079e-01  1.750725120430729e-10  1.555369202947896e-03 
 3.464000000000002e-07  8.500000000000000e-01  8.681938946369060e-01  8.681939381353597e-01  8.681939379640934e-01  8.681939380497266e-01  1.712663344477505e-10  1.555369202905186e-03 
 3.514000000000002e-07  8.500000000000000e-01  8.681938946458310e-01  8.681939381418812e-01  8.681939379762542e-01  8.681939380590677e-01  1.656269565941670e-10  1.555369203112271e-03 
 3.564000000000003e-07  8.500000000000000e-01  8.681938946567536e-01  8.681939381513037e-01  8.681939379894912e-01  8.681939380703975e-01  1.618125633484624e-10  1.555369203111973e-03 
 3.614000000000003e-07  8.500000000000000e-01  8.681938946682149e-01  8.681939381623943e-01  8.681939380037361e-01  8.681939380830652e-01  1.586581976908974e-10  1.555369203111843e-03 
 3.664000000000003e-07  8.500000000000000e-01  8.681938946819331e-01  8.681939381744035e-01  8.681939380203924e-01  8.681939380973980e-01  1.540111371767239e-10  1.555369202931102e-03 
 3.714000000000003e-07  8.500000000000000e-01  8.681938946976385e-01  8.681939381894784e-01  8.681939380386692e-01  8.681939381140737e-01  1.508092539737049e-10  1.555369202977369e-03 
 3.764000000000003e-07  8.500000000000000e-01  8.681938947104354e-01  8.681939382050449e-01  8.681939380510011e-01  8.681939381280230e-01  1.540437777336479e-10  1.555369203090250e-03 
 3.814000000000003e-07  8.500000000000000e-01  8.681938947282495e-01  8.681939382199976e-01  8.681939380670716e-01  8.681939381435346e-01  1.529260051924552e-10  1.555369203589946e-03 
 3.864000000000003e-07  8.500000000000000e-01  8.681938947412103e-01  8.681939382332600e-01  8.681939380803990e-01  8.681939381568295e-01  1.528609461232122e-10  1.555369202742876e-03 
 3.914000000000003e-07  8.500000000000000e-01  8.681938947527512e-01  8.681939382447280e-01  8.681939380946596e-01  8.681939381696938e-01  1.500684021493726e-10  1.555369203417876e-03 
 3.964000000000003e-07  8.500000000000000e-01  8.681938947638114e-01  8.681939382517501e-01  8.681939381067912e-01  8.681939381792707e-01  1.449588227231402e-10  1.555369203434932e-03 
 4.014000000000003e-07  8.500000000000000e-01  8.681938947742247e-01  8.681939382564129e-01  8.681939381201207e-01  8.681939381882668e-01  1.362921997483113e-10  1.555369203253167e-03 
 4.064000000000003e-07  8.500000000000000e-01  8.681938947817834e-01  8.681939382614530e-01  8.681939381282040e-01  8.681939381948285e-01  1.332489674155113e-10  1.555369203237964e-03 
 4.114000000000003e-07  8.500000000000000e-01  8.681938947869449e-01  8.681939382666441e-01  8.681939381342689e-01  8.681939382004565e-01  1.323752218951313e-10  1.555369203600248e-03 
 4.164000000000003e-07  8.500000000000000e-01  8.681938947893578e-01  8.681939382681669e-01  8.681939381353693e-01  8.681939382017680e-01  1.327976617560012e-10  1.555369203049759e-03 
 4.214000000000003e-07  8.500000000000000e-01  8.681938947866287e-01  8.681939382639593e-01  8.681939381309487e-01  8.681939381974539e-01  1.330106025321243e-10  1.555369203026883e-03 
 4.264000000000003e-07  8.500000000000000e-01  8.681938947797695e-01  8.681939382533265e-01  8.681939381236313e-01  8.681939381884789e-01  1.296951435136862e-10  1.555369203014238e-03 
 4.314000000000003e-07  8.500000000000000e-01  8.681938947666273e-01  8.681939382361555e-01  8.681939381106841e-01  8.681939381734198e-01  1.254714110388022e-10  1.555369202643294e-03 
 4.364000000000003e-07  8.500000000000000e-01  8.681938947530285e-01  8.681939382144015e-01  8.681939380966108e-01  8.681939381555062e-01  1.177906661098405e-10  1.555369202624803e-03 
 4.414000000000003e-07  8.500000000000000e-01  8.681938947357559e-01  8.681939381939127e-01  8.681939380813465e-01  8.681939381376296e-01  1.125661786005594e-10  1.555369203240608e-03 
 4.464000000000003e-07  8.500000000000000e-01  8.681938947178660e-01  8.681939381753453e-01  8.681939380619933e-01  8.681939381186693e-01  1.133519944573891e-10  1.555369202780712e-03 
 4.514000000000003e-07  8.500000000000000e-01  8.681938946947957e-01  8.681939381577269e-01  8.681939380318424e-01  8.681939380947847e-01  1.258845250262652e-10  1.555369202527614e-03 
 4.564000000000004e-07  8.500000000000000e-01  8.681938946735608e-01  8.681939381421067e-01  8.681939380044811e-01  8.681939380732939e-01  1.376255776008861e-10  1.555369202992686e-03 
 4.614000000000004e-07  8.500000000000000e-01  8.681938946578063e-01  8.681939381302541e-01  8.681939379873798e-01  8.681939380588169e-01  1.428743789944065e-10  1.555369203010313e-03 
 4.664000000000004e-07  8.500000000000000e-01  8.681938946452170e-01  8.681939381215104e-01  8.681939379753022e-01  8.681939380484063e-01  1.462081566927509e-10  1.555369203008550e-03 
 4.714000000000004e-07  8.500000000000000e-01  8.681938946345568e-01  8.681939381127257e-01  8.681939379646665e-01  8.681939380386960e-01  1.480592315417084e-10  1.555369203009728e-03 
 4.764000000000004e-07  8.500000000000000e-01  8.681938946256486e-01  8.681939381032610e-01  8.681939379585399e-01  8.681939380309005e-01  1.447210129512655e-10  1.555369203456321e-03 
 4.814000000000004e-07  8.500000000000000e-01  8.681938946208801e-01  8.681939380971545e-01  8.681939379606409e-01  8.681939380288977e-01  1.365135782194216e-10  1.555369203419222e-03 
 4.864000000000003e-07  8.500000000000000e-01  8.681938946174605e-01  8.681939380900978e-01  8.681939379604054e-01  8.681939380252517e-01  1.296923679561246e-10  1.555369203223140e-03 
 4.914000000000003e-07  8.500000000000000e-01  8.681938946144218e-01  8.681939380836559e-01  8.681939379614639e-01  8.681939380225598e-01  1.221919232463620e-10  1.555369203651258e-03 
 4.964000000000002e-07  8.500000000000000e-01  8.681938946093207e-01  8.681939380759576e-01  8.681939379583706e-01  8.681939380171642e-01  1.175869401848217e-10  1.555369203239278e-03 
