 time                   v(VDIFFCMD)            tr_vin_diff            v(OUTP)                v(OUTN)                tr_voutcm              tr_voutdiff            v(VOCM)                tr_idd                
 0.000000000000000e+00  0.000000000000000e+00  1.431195162382437e-10  1.649108670126007e+00  1.649108670412246e+00  1.649108670269127e+00 -2.862390324764874e-10  1.649108587813697e+00  1.605332225127163e-03 
 5.000000000000000e-11  0.000000000000000e+00  1.429218965398604e-10  1.649108670126038e+00  1.649108670412214e+00  1.649108670269126e+00 -2.861761938532936e-10  1.649108587813551e+00  1.605332224937832e-03 
 1.000000000000000e-10  0.000000000000000e+00  1.427509221940682e-10  1.649108670126083e+00  1.649108670412179e+00  1.649108670269131e+00 -2.860964798401255e-10  1.649108587813043e+00  1.605332224738586e-03 
 2.000000000000000e-10  0.000000000000000e+00  1.428621665411356e-10  1.649108670126038e+00  1.649108670411980e+00  1.649108670269009e+00 -2.859419367950977e-10  1.649108587812501e+00  1.605332225006782e-03 
 4.000000000000000e-10  0.000000000000000e+00  1.431803564599932e-10  1.649108670126130e+00  1.649108670411631e+00  1.649108670268880e+00 -2.855005121205068e-10  1.649108587811919e+00  1.605332225402015e-03 
 8.000000000000000e-10  0.000000000000000e+00  1.443198893724684e-10  1.649108670126573e+00  1.649108670412135e+00  1.649108670269354e+00 -2.855622405206759e-10  1.649108587811323e+00  1.605332225250312e-03 
 1.600000000000000e-09  0.000000000000000e+00  1.447431063894555e-10  1.649108670127492e+00  1.649108670414304e+00  1.649108670270898e+00 -2.868119075571940e-10  1.649108587811889e+00  1.605332225571424e-03 
 3.200000000000000e-09  0.000000000000000e+00  1.481659239743749e-10  1.649108670128097e+00  1.649108670420222e+00  1.649108670274160e+00 -2.921247688192352e-10  1.649108587813660e+00  1.605332225375609e-03 
 6.400000000000000e-09  0.000000000000000e+00  1.386397663338812e-10  1.649108670146532e+00  1.649108670432729e+00  1.649108670289631e+00 -2.861972880907615e-10  1.649108587828813e+00  1.605332225350159e-03 
 1.140000000000000e-08  0.000000000000000e+00  1.288964490697708e-10  1.649108670195278e+00  1.649108670428453e+00  1.649108670311866e+00 -2.331752568807133e-10  1.649108587849182e+00  1.605332225335225e-03 
 1.640000000000000e-08  0.000000000000000e+00  1.272155714104883e-10  1.649108670277844e+00  1.649108670468268e+00  1.649108670373056e+00 -1.904238988714724e-10  1.649108587902169e+00  1.605332226646848e-03 
 2.140000000000000e-08  0.000000000000000e+00  1.197335564029345e-10  1.649108670379178e+00  1.649108670539808e+00  1.649108670459493e+00 -1.606297317380267e-10  1.649108587976066e+00  1.605332227235393e-03 
 2.640000000000000e-08  0.000000000000000e+00  1.095374901893820e-10  1.649108670479470e+00  1.649108670620786e+00  1.649108670550127e+00 -1.413160699570426e-10  1.649108588056704e+00  1.605332226728614e-03 
 3.140000000000000e-08  0.000000000000000e+00  1.013842343411397e-10  1.649108670567271e+00  1.649108670703727e+00  1.649108670635499e+00 -1.364557355998386e-10  1.649108588142592e+00  1.605332226330881e-03 
 3.640000000000000e-08  0.000000000000000e+00  9.300871184336756e-11  1.649108670646199e+00  1.649108670784006e+00  1.649108670715103e+00 -1.378066549762025e-10  1.649108588229725e+00  1.605332226452689e-03 
 4.139999999999999e-08  0.000000000000000e+00  8.777667481751905e-11  1.649108670715931e+00  1.649108670860259e+00  1.649108670788095e+00 -1.443287711566654e-10  1.649108588299754e+00  1.605332226942654e-03 
 4.639999999999999e-08  0.000000000000000e+00  8.449907440422066e-11  1.649108670777588e+00  1.649108670931614e+00  1.649108670854601e+00 -1.540256810983465e-10  1.649108588371143e+00  1.605332226386566e-03 
 5.139999999999999e-08  0.000000000000000e+00  8.486211733327309e-11  1.649108670831421e+00  1.649108671002300e+00  1.649108670916861e+00 -1.708790886567613e-10  1.649108588436892e+00  1.605332226401312e-03 
 5.639999999999999e-08  0.000000000000000e+00  8.885381319601038e-11  1.649108670879545e+00  1.649108671079188e+00  1.649108670979366e+00 -1.996429688233547e-10  1.649108588492465e+00  1.605332226207220e-03 
 6.139999999999999e-08  0.000000000000000e+00  9.394884870062015e-11  1.649108670919263e+00  1.649108671151617e+00  1.649108671035440e+00 -2.323539138870956e-10  1.649108588552562e+00  1.605332226226350e-03 
 6.640000000000000e-08  0.000000000000000e+00  9.909673082120207e-11  1.649108670952195e+00  1.649108671207354e+00  1.649108671079774e+00 -2.551592270805259e-10  1.649108588599822e+00  1.605332225569839e-03 
 7.140000000000000e-08  0.000000000000000e+00  1.057218756983502e-10  1.649108670978153e+00  1.649108671244813e+00  1.649108671111483e+00 -2.666600273926178e-10  1.649108588638173e+00  1.605332225534288e-03 
 7.640000000000001e-08  0.000000000000000e+00  1.148738881795452e-10  1.649108670997119e+00  1.649108671276796e+00  1.649108671136957e+00 -2.796771703117429e-10  1.649108588666759e+00  1.605332225349964e-03 
 8.140000000000001e-08  0.000000000000000e+00  1.222943968315349e-10  1.649108671012592e+00  1.649108671300459e+00  1.649108671156525e+00 -2.878677296536125e-10  1.649108588690546e+00  1.605332224907576e-03 
 8.640000000000002e-08  0.000000000000000e+00  1.278683825489679e-10  1.649108671019462e+00  1.649108671311616e+00  1.649108671165539e+00 -2.921543007516902e-10  1.649108588699558e+00  1.605332225110498e-03 
 9.140000000000002e-08  0.000000000000000e+00  1.349160783092884e-10  1.649108671017650e+00  1.649108671325139e+00  1.649108671171394e+00 -3.074889232124178e-10  1.649108588708311e+00  1.605332224674917e-03 
 9.640000000000003e-08  0.000000000000000e+00  1.382842729213962e-10  1.649108671014942e+00  1.649108671325297e+00  1.649108671170120e+00 -3.103546308835803e-10  1.649108588714055e+00  1.605332224641473e-03 
 1.014000000000000e-07  0.000000000000000e+00  1.417563844086089e-10  1.649108671011183e+00  1.649108671321900e+00  1.649108671166542e+00 -3.107172297234229e-10  1.649108588712514e+00  1.605332224767633e-03 
 1.064000000000000e-07  0.000000000000000e+00  1.471731625457551e-10  1.649108671003005e+00  1.649108671319880e+00  1.649108671161442e+00 -3.168756368410186e-10  1.649108588705073e+00  1.605332224270525e-03 
 1.114000000000000e-07  0.000000000000000e+00  1.501569979467376e-10  1.649108670997158e+00  1.649108671320168e+00  1.649108671158663e+00 -3.230102851858874e-10  1.649108588702357e+00  1.605332224672821e-03 
 1.164000000000000e-07  0.000000000000000e+00  1.514330882912418e-10  1.649108670991605e+00  1.649108671312427e+00  1.649108671152016e+00 -3.208220356043512e-10  1.649108588699979e+00  1.605332224544556e-03 
 1.214000000000000e-07  0.000000000000000e+00  1.526119230987888e-10  1.649108670975669e+00  1.649108671288295e+00  1.649108671131982e+00 -3.126257031027535e-10  1.649108588680922e+00  1.605332224122140e-03 
 1.264000000000000e-07  0.000000000000000e+00  1.561091256263580e-10  1.649108670951298e+00  1.649108671265537e+00  1.649108671108417e+00 -3.142390792021388e-10  1.649108588661908e+00  1.605332224264960e-03 
 1.314000000000001e-07  0.000000000000000e+00  1.558162487924619e-10  1.649108670933043e+00  1.649108671249020e+00  1.649108671091031e+00 -3.159768002802821e-10  1.649108588643226e+00  1.605332224401030e-03 
 1.364000000000001e-07  0.000000000000000e+00  1.538671412504300e-10  1.649108670923999e+00  1.649108671231462e+00  1.649108671077731e+00 -3.074633880828515e-10  1.649108588626508e+00  1.605332224639419e-03 
 1.414000000000001e-07  0.000000000000000e+00  1.523827730665062e-10  1.649108670926432e+00  1.649108671219683e+00  1.649108671073057e+00 -2.932503129216002e-10  1.649108588624592e+00  1.605332224436872e-03 
 1.464000000000001e-07  0.000000000000000e+00  1.503279722925299e-10  1.649108670936804e+00  1.649108671216367e+00  1.649108671076586e+00 -2.795632614294163e-10  1.649108588624696e+00  1.605332224882636e-03 
 1.514000000000001e-07  0.000000000000000e+00  1.480657818575537e-10  1.649108670948265e+00  1.649108671219591e+00  1.649108671083928e+00 -2.713267388543272e-10  1.649108588626766e+00  1.605332225133123e-03 
 1.564000000000001e-07  0.000000000000000e+00  1.468227761591834e-10  1.649108670958374e+00  1.649108671226851e+00  1.649108671092612e+00 -2.684772404393243e-10  1.649108588633673e+00  1.605332224678134e-03 
 1.614000000000001e-07  0.000000000000000e+00  1.448754449739909e-10  1.649108670970365e+00  1.649108671243207e+00  1.649108671106786e+00 -2.728413051045209e-10  1.649108588647291e+00  1.605332225328990e-03 
 1.664000000000001e-07  0.000000000000000e+00  1.416486927752203e-10  1.649108670982341e+00  1.649108671256404e+00  1.649108671119373e+00 -2.740632165654233e-10  1.649108588655522e+00  1.605332224892911e-03 
 1.714000000000001e-07  0.000000000000000e+00  1.383495540352442e-10  1.649108670990499e+00  1.649108671257070e+00  1.649108671123785e+00 -2.665703213722281e-10  1.649108588663734e+00  1.605332225111813e-03 
 1.764000000000001e-07  0.000000000000000e+00  1.354316658819243e-10  1.649108670996743e+00  1.649108671255394e+00  1.649108671126069e+00 -2.586517666713917e-10  1.649108588670612e+00  1.605332224490316e-03 
 1.814000000000001e-07  0.000000000000000e+00  1.330302534796601e-10  1.649108670999482e+00  1.649108671249329e+00  1.649108671124405e+00 -2.498461437738797e-10  1.649108588670643e+00  1.605332224985032e-03 
 1.864000000000001e-07  0.000000000000000e+00  1.334445887124502e-10  1.649108670993712e+00  1.649108671246138e+00  1.649108671119925e+00 -2.524258579938987e-10  1.649108588664533e+00  1.605332224540759e-03 
 1.914000000000001e-07  0.000000000000000e+00  1.326749821117801e-10  1.649108670983902e+00  1.649108671245406e+00  1.649108671114654e+00 -2.615043737108635e-10  1.649108588660181e+00  1.605332224759900e-03 
 1.964000000000001e-07  0.000000000000000e+00  1.320856757303090e-10  1.649108670974767e+00  1.649108671243964e+00  1.649108671109366e+00 -2.691968870038863e-10  1.649108588657954e+00  1.605332224456799e-03 
 2.014000000000001e-07  0.000000000000000e+00  1.336664112727703e-10  1.649108670964717e+00  1.649108671242637e+00  1.649108671103677e+00 -2.779201313529711e-10  1.649108588647757e+00  1.605332224497409e-03 
 2.064000000000001e-07  0.000000000000000e+00  1.372884028683075e-10  1.649108670951717e+00  1.649108671244779e+00  1.649108671098248e+00 -2.930624631858336e-10  1.649108588640698e+00  1.605332224497261e-03 
 2.114000000000001e-07  0.000000000000000e+00  1.383644310237742e-10  1.649108670937422e+00  1.649108671238610e+00  1.649108671088016e+00 -3.011872973246454e-10  1.649108588634978e+00  1.605332224278877e-03 
 2.164000000000001e-07  0.000000000000000e+00  1.411426531205962e-10  1.649108670924113e+00  1.649108671227689e+00  1.649108671075901e+00 -3.035753870506142e-10  1.649108588626162e+00  1.605332224582801e-03 
 2.214000000000001e-07  0.000000000000000e+00  1.441982089289695e-10  1.649108670913920e+00  1.649108671219140e+00  1.649108671066530e+00 -3.052200714392939e-10  1.649108588616913e+00  1.605332224509924e-03 
 2.264000000000001e-07  0.000000000000000e+00  1.471636146277433e-10  1.649108670901889e+00  1.649108671210913e+00  1.649108671056401e+00 -3.090241396108695e-10  1.649108588600653e+00  1.605332224382549e-03 
 2.314000000000002e-07  0.000000000000000e+00  1.494722123851489e-10  1.649108670909394e+00  1.649108671223014e+00  1.649108671066204e+00 -3.136195747543979e-10  1.649108588610656e+00  1.605332225533557e-03 
 2.364000000000002e-07  0.000000000000000e+00  1.506097468961798e-10  1.649108670933012e+00  1.649108671247162e+00  1.649108671090087e+00 -3.141502613601688e-10  1.649108588624624e+00  1.605332225573382e-03 
 2.414000000000001e-07  0.000000000000000e+00  1.523867698693948e-10  1.649108670967028e+00  1.649108671280667e+00  1.649108671123848e+00 -3.136384485458166e-10  1.649108588657336e+00  1.605332225837066e-03 
 2.464000000000001e-07  0.000000000000000e+00  1.502034052691670e-10  1.649108671003871e+00  1.649108671304844e+00  1.649108671154357e+00 -3.009734683701026e-10  1.649108588685396e+00  1.605332225378251e-03 
 2.514000000000001e-07  0.000000000000000e+00  1.464792731553644e-10  1.649108671040665e+00  1.649108671315064e+00  1.649108671177865e+00 -2.743996141418847e-10  1.649108588715806e+00  1.605332225621339e-03 
 2.564000000000002e-07  0.000000000000000e+00  1.448465791753506e-10  1.649108671076621e+00  1.649108671336103e+00  1.649108671206362e+00 -2.594813253153916e-10  1.649108588740154e+00  1.605332226359725e-03 
 2.614000000000002e-07  0.000000000000000e+00  1.414641737085276e-10  1.649108671111849e+00  1.649108671360039e+00  1.649108671235944e+00 -2.481899130657439e-10  1.649108588763531e+00  1.605332226077121e-03 
 2.664000000000002e-07  0.000000000000000e+00  1.375937142000794e-10  1.649108671145191e+00  1.649108671388138e+00  1.649108671266664e+00 -2.429474399434639e-10  1.649108588798865e+00  1.605332226383854e-03 
 2.714000000000002e-07  0.000000000000000e+00  1.313908981614986e-10  1.649108671170936e+00  1.649108671404227e+00  1.649108671287582e+00 -2.332907200752743e-10  1.649108588823445e+00  1.605332225965423e-03 
 2.764000000000002e-07  0.000000000000000e+00  1.259210513637754e-10  1.649108671194646e+00  1.649108671413688e+00  1.649108671304167e+00 -2.190423398218400e-10  1.649108588840753e+00  1.605332225949445e-03 
 2.814000000000002e-07  0.000000000000000e+00  1.195694654398949e-10  1.649108671219383e+00  1.649108671419683e+00  1.649108671319533e+00 -2.002997767647230e-10  1.649108588859657e+00  1.605332225913102e-03 
 2.864000000000002e-07  0.000000000000000e+00  1.151800876897369e-10  1.649108671240401e+00  1.649108671428382e+00  1.649108671334392e+00 -1.879814082172970e-10  1.649108588875900e+00  1.605332225720007e-03 
 2.914000000000002e-07  0.000000000000000e+00  1.081592593266123e-10  1.649108671261234e+00  1.649108671436766e+00  1.649108671349000e+00 -1.755329215313850e-10  1.649108588886047e+00  1.605332225538353e-03 
 2.964000000000002e-07  0.000000000000000e+00  9.990563931694396e-11  1.649108671279004e+00  1.649108671434499e+00  1.649108671356751e+00 -1.554949502491354e-10  1.649108588894629e+00  1.605332225307103e-03 
 3.014000000000002e-07  0.000000000000000e+00  9.295963998567913e-11  1.649108671289929e+00  1.649108671429975e+00  1.649108671359952e+00 -1.400461968614763e-10  1.649108588898953e+00  1.605332225300691e-03 
 3.064000000000002e-07  0.000000000000000e+00  8.913403348742577e-11  1.649108671297789e+00  1.649108671435638e+00  1.649108671366713e+00 -1.378481773173235e-10  1.649108588906320e+00  1.605332225493753e-03 
 3.114000000000002e-07  0.000000000000000e+00  8.427036846114788e-11  1.649108671303425e+00  1.649108671439601e+00  1.649108671371513e+00 -1.361766255314478e-10  1.649108588913325e+00  1.605332225724157e-03 
 3.164000000000002e-07  0.000000000000000e+00  8.172684751173165e-11  1.649108671307308e+00  1.649108671448590e+00  1.649108671377949e+00 -1.412816530432792e-10  1.649108588922263e+00  1.605332225759726e-03 
 3.214000000000002e-07  0.000000000000000e+00  8.011880048286457e-11  1.649108671308093e+00  1.649108671459963e+00  1.649108671384028e+00 -1.518698500291293e-10  1.649108588926170e+00  1.605332225751982e-03 
 3.264000000000002e-07  0.000000000000000e+00  8.083822500282167e-11  1.649108671307966e+00  1.649108671475791e+00  1.649108671391879e+00 -1.678250871606224e-10  1.649108588932386e+00  1.605332225996370e-03 
 3.314000000000002e-07  0.000000000000000e+00  8.079603652788592e-11  1.649108671304656e+00  1.649108671482913e+00  1.649108671393785e+00 -1.782569647446053e-10  1.649108588934823e+00  1.605332225617796e-03 
 3.364000000000002e-07  0.000000000000000e+00  8.253620009668339e-11  1.649108671308403e+00  1.649108671486180e+00  1.649108671397291e+00 -1.777771263533623e-10  1.649108588942032e+00  1.605332225749453e-03 
 3.414000000000002e-07  0.000000000000000e+00  8.343770119267901e-11  1.649108671302124e+00  1.649108671480053e+00  1.649108671391089e+00 -1.779292269077359e-10  1.649108588936937e+00  1.605332225348421e-03 
 3.464000000000002e-07  0.000000000000000e+00  8.344214208477752e-11  1.649108671299753e+00  1.649108671472542e+00  1.649108671386148e+00 -1.727886722591165e-10  1.649108588925948e+00  1.605332225363944e-03 
 3.514000000000002e-07  0.000000000000000e+00  8.143574703467493e-11  1.649108671303314e+00  1.649108671460829e+00  1.649108671382072e+00 -1.575146679755335e-10  1.649108588928960e+00  1.605332225554379e-03 
 3.564000000000003e-07  0.000000000000000e+00  7.846479022077801e-11  1.649108671302069e+00  1.649108671442673e+00  1.649108671372371e+00 -1.406048610874677e-10  1.649108588922082e+00  1.605332225554617e-03 
 3.614000000000003e-07  0.000000000000000e+00  7.664491263881246e-11  1.649108671298825e+00  1.649108671427411e+00  1.649108671363118e+00 -1.285866968459004e-10  1.649108588911034e+00  1.605332225780787e-03 
 3.664000000000003e-07  0.000000000000000e+00  7.393996526161573e-11  1.649108671296695e+00  1.649108671414314e+00  1.649108671355505e+00 -1.176190256302334e-10  1.649108588903944e+00  1.605332225195998e-03 
 3.714000000000003e-07  0.000000000000000e+00  7.124545398085047e-11  1.649108671288006e+00  1.649108671402354e+00  1.649108671345180e+00 -1.143478645104778e-10  1.649108588890803e+00  1.605332225012421e-03 
 3.764000000000003e-07  0.000000000000000e+00  6.954836706540846e-11  1.649108671269303e+00  1.649108671390285e+00  1.649108671329794e+00 -1.209825573056378e-10  1.649108588879761e+00  1.605332225181454e-03 
 3.814000000000003e-07  0.000000000000000e+00  6.997602497449407e-11  1.649108671241176e+00  1.649108671379693e+00  1.649108671310434e+00 -1.385174197565675e-10  1.649108588862292e+00  1.605332224958136e-03 
 3.864000000000003e-07  0.000000000000000e+00  7.139733249061919e-11  1.649108671210617e+00  1.649108671370816e+00  1.649108671290716e+00 -1.601991872490771e-10  1.649108588841641e+00  1.605332224738453e-03 
 3.914000000000003e-07  0.000000000000000e+00  7.413536451394975e-11  1.649108671181557e+00  1.649108671360580e+00  1.649108671271068e+00 -1.790225745423868e-10  1.649108588824824e+00  1.605332224676883e-03 
 3.964000000000003e-07  0.000000000000000e+00  7.974909621566439e-11  1.649108671158298e+00  1.649108671356546e+00  1.649108671257422e+00 -1.982474184814009e-10  1.649108588809554e+00  1.605332225134371e-03 
 4.014000000000003e-07  0.000000000000000e+00  8.279754659668015e-11  1.649108671141966e+00  1.649108671342388e+00  1.649108671242177e+00 -2.004212351636170e-10  1.649108588794912e+00  1.605332225443584e-03 
 4.064000000000003e-07  0.000000000000000e+00  8.646861004990569e-11  1.649108671130843e+00  1.649108671330686e+00  1.649108671230764e+00 -1.998430310123922e-10  1.649108588782008e+00  1.605332225217386e-03 
 4.114000000000003e-07  0.000000000000000e+00  8.868439316245258e-11  1.649108671121628e+00  1.649108671315645e+00  1.649108671218636e+00 -1.940165805791594e-10  1.649108588766222e+00  1.605332224906310e-03 
 4.164000000000003e-07  0.000000000000000e+00  9.177725246445334e-11  1.649108671109213e+00  1.649108671300658e+00  1.649108671204936e+00 -1.914450820095226e-10  1.649108588752196e+00  1.605332224739474e-03 
 4.214000000000003e-07  0.000000000000000e+00  9.190248562163106e-11  1.649108671093529e+00  1.649108671280569e+00  1.649108671187049e+00 -1.870401611370198e-10  1.649108588739488e+00  1.605332224718713e-03 
 4.264000000000003e-07  0.000000000000000e+00  9.311129645084293e-11  1.649108671080245e+00  1.649108671265855e+00  1.649108671173050e+00 -1.856106379705125e-10  1.649108588724804e+00  1.605332224688926e-03 
 4.314000000000003e-07  0.000000000000000e+00  9.125700195511399e-11  1.649108671066368e+00  1.649108671245282e+00  1.649108671155825e+00 -1.789133285967637e-10  1.649108588708234e+00  1.605332224707173e-03 
 4.364000000000003e-07  0.000000000000000e+00  8.897393932727482e-11  1.649108671048512e+00  1.649108671214171e+00  1.649108671131342e+00 -1.656592640841836e-10  1.649108588685575e+00  1.605332224778715e-03 
